[
    {
        "request": "19 03 00 0a 00 02 e7 d1",
        "answer": "19 03 04 5f 43 3a 90 93 3e"
    },
    {
        "request": "19 03 00 64 00 01 c6 0d",
        "answer": "19 03 02 00 64 99 ad"
    },
    {
        "request": "19 03 00 ae 00 02 a6 32",
        "answer": "19 03 04 d9 3e 40 80 08 c2"
    },
    {
        "request": "19 03 00 64 00 01 c6 0d",
        "answer": "19 03 02 00 64 99 ad"
    },
    {
        "request": "19 03 00 64 00 01 c6 0d",
        "answer": "19 03 02 00 64 99 ad"
    },
    {
        "request": "19 03 00 64 00 01 c6 0d",
        "answer": "19 03 02 00 64 99 ad"
    },
    {
        "request": "19 03 00 64 00 01 c6 0d",
        "answer": "19 03 02 00 64 99 ad"
    },
    {
        "request": "19 03 00 64 00 01 c6 0d",
        "answer": "19 03 02 00 64 99 ad"
    },
    {
        "request": "19 03 00 64 00 01 c6 0d",
        "answer": "19 03 02 00 64 99 ad"
    },
    {
        "request": "19 03 00 64 00 01 c6 0d",
        "answer": "19 03 02 00 64 99 ad"
    },
    {
        "request": "19 03 00 64 00 01 c6 0d",
        "answer": "19 03 02 00 64 99 ad"
    },
    {
        "request": "19 03 00 64 00 01 c6 0d",
        "answer": "19 03 02 00 64 99 ad"
    },
    {
        "request": "19 03 00 64 00 01 c6 0d",
        "answer": "19 03 02 00 64 99 ad"
    },
    {
        "request": "19 03 00 64 00 01 c6 0d",
        "answer": "19 03 02 00 64 99 ad"
    },
    {
        "request": "19 03 00 64 00 01 c6 0d",
        "answer": "19 03 02 00 64 99 ad"
    },
    {
        "request": "19 03 00 64 00 01 c6 0d",
        "answer": "19 03 02 00 64 99 ad"
    },
    {
        "request": "19 03 00 64 00 01 c6 0d",
        "answer": "19 03 02 00 64 99 ad"
    },
    {
        "request": "19 03 00 64 00 01 c6 0d",
        "answer": "19 03 02 00 64 99 ad"
    },
    {
        "request": "19 03 00 64 00 01 c6 0d",
        "answer": "19 03 02 00 64 99 ad"
    },
    {
        "request": "19 03 00 64 00 01 c6 0d",
        "answer": "19 03 02 00 64 99 ad"
    },
    {
        "request": "19 03 00 64 00 01 c6 0d",
        "answer": "19 03 02 00 64 99 ad"
    },
    {
        "request": "19 03 00 64 00 01 c6 0d",
        "answer": "19 03 02 00 64 99 ad"
    },
    {
        "request": "19 03 00 64 00 01 c6 0d",
        "answer": "19 03 02 00 64 99 ad"
    },
    {
        "request": "19 03 00 64 00 01 c6 0d",
        "answer": "19 03 02 00 64 99 ad"
    },
    {
        "request": "19 03 00 64 00 01 c6 0d",
        "answer": "19 03 02 00 64 99 ad"
    },
    {
        "request": "19 03 00 64 00 01 c6 0d",
        "answer": "19 03 02 00 64 99 ad"
    },
    {
        "request": "19 03 00 64 00 01 c6 0d",
        "answer": "19 03 02 00 64 99 ad"
    },
    {
        "request": "19 03 00 64 00 01 c6 0d",
        "answer": "19 03 02 00 64 99 ad"
    },
    {
        "request": "19 03 00 64 00 01 c6 0d",
        "answer": "19 03 02 00 64 99 ad"
    },
    {
        "request": "19 03 00 64 00 01 c6 0d",
        "answer": "19 03 02 00 64 99 ad"
    },
    {
        "request": "19 03 00 64 00 01 c6 0d",
        "answer": "19 03 02 00 64 99 ad"
    },
    {
        "request": "19 03 00 64 00 01 c6 0d",
        "answer": "19 03 02 00 64 99 ad"
    },
    {
        "request": "19 03 00 64 00 01 c6 0d",
        "answer": "19 03 02 00 64 99 ad"
    },
    {
        "request": "19 03 00 64 00 01 c6 0d",
        "answer": "19 03 02 00 64 99 ad"
    },
    {
        "request": "19 03 00 64 00 01 c6 0d",
        "answer": "19 03 02 00 64 99 ad"
    },
    {
        "request": "19 03 00 64 00 01 c6 0d",
        "answer": "19 03 02 00 64 99 ad"
    },
    {
        "request": "19 03 00 64 00 01 c6 0d",
        "answer": "19 03 02 00 64 99 ad"
    },
    {
        "request": "19 03 00 64 00 01 c6 0d",
        "answer": "19 03 02 00 64 99 ad"
    },
    {
        "request": "19 03 00 64 00 01 c6 0d",
        "answer": "19 03 02 00 64 99 ad"
    },
    {
        "request": "19 03 00 64 00 01 c6 0d",
        "answer": "19 03 02 00 64 99 ad"
    },
    {
        "request": "19 03 00 64 00 01 c6 0d",
        "answer": "19 03 02 00 64 99 ad"
    },
    {
        "request": "19 03 00 64 00 01 c6 0d",
        "answer": "19 03 02 00 64 99 ad"
    },
    {
        "request": "19 03 00 64 00 01 c6 0d",
        "answer": "19 03 02 00 64 99 ad"
    },
    {
        "request": "19 03 00 64 00 01 c6 0d",
        "answer": "19 03 02 00 64 99 ad"
    },
    {
        "request": "19 03 00 64 00 01 c6 0d",
        "answer": "19 03 02 00 64 99 ad"
    },
    {
        "request": "19 03 00 64 00 01 c6 0d",
        "answer": "19 03 02 00 64 99 ad"
    },
    {
        "request": "19 03 00 64 00 01 c6 0d",
        "answer": "19 03 02 00 64 99 ad"
    },
    {
        "request": "19 10 00 6b 00 02 04 00 01 00 64 ff ff",
        "answer": "19 10 00 6b 00 02 33 cc"
    },
    {
        "request": "19 10 00 6b 00 02 04 00 01 00 01 ff ff",
        "answer": "19 10 00 6b 00 02 33 cc"
    },
    {
        "request": "19 10 00 6b 00 01 02 00 05 ff ff",
        "answer": "19 10 00 6b 00 01 73 cd"
    },
    {
        "request": "19 10 00 6b 00 01 02 00 06 ff ff",
        "answer": "19 10 00 6b 00 01 73 cd"
    },
    {
        "request": "19 03 00 64 00 01 c6 0d",
        "answer": "19 03 02 00 01 59 86"
    },
    {
        "request": "19 03 00 66 00 01 67 cd",
        "answer": "19 03 02 00 00 98 46"
    },
    {
        "request": "19 03 00 84 00 06 86 39",
        "answer": "19 03 0c c0 00 3a 2f c0 00 3a 2f c0 00 3a 2f c3 65"
    },
    {
        "request": "19 03 00 64 00 01 c6 0d",
        "answer": "19 03 02 00 01 59 86"
    },
    {
        "request": "19 03 00 66 00 01 67 cd",
        "answer": "19 03 02 00 00 98 46"
    },
    {
        "request": "19 03 00 84 00 06 86 39",
        "answer": "19 03 0c c0 00 3a 2f c0 00 3a 2f c0 00 3a 2f c3 65"
    },
    {
        "request": "19 03 00 64 00 01 c6 0d",
        "answer": "19 03 02 00 01 59 86"
    },
    {
        "request": "19 03 00 66 00 01 67 cd",
        "answer": "19 03 02 00 00 98 46"
    },
    {
        "request": "19 03 00 84 00 06 86 39",
        "answer": "19 03 0c c0 00 3a 2f c0 00 3a 2f c0 00 3a 2f c3 65"
    },
    {
        "request": "19 10 00 6b 00 02 04 00 01 00 64 ff ff",
        "answer": "19 10 00 6b 00 02 33 cc"
    },
    {
        "request": "19 10 00 6b 00 02 04 00 01 00 02 ff ff",
        "answer": "19 10 00 6b 00 02 33 cc"
    },
    {
        "request": "19 10 00 6b 00 01 02 00 05 ff ff",
        "answer": "19 10 00 6b 00 01 73 cd"
    },
    {
        "request": "19 10 00 6b 00 01 02 00 06 ff ff",
        "answer": "19 10 00 6b 00 01 73 cd"
    },
    {
        "request": "19 03 00 64 00 01 c6 0d",
        "answer": "19 03 02 00 02 19 87"
    },
    {
        "request": "19 03 00 66 00 01 67 cd",
        "answer": "19 03 02 00 00 98 46"
    },
    {
        "request": "19 03 00 84 00 06 86 39",
        "answer": "19 03 0c c0 00 3a 2f c0 00 3a 2f c0 00 3a 2f c3 65"
    },
    {
        "request": "19 03 00 64 00 01 c6 0d",
        "answer": "19 03 02 00 02 19 87"
    },
    {
        "request": "19 03 00 66 00 01 67 cd",
        "answer": "19 03 02 00 00 98 46"
    },
    {
        "request": "19 03 00 84 00 06 86 39",
        "answer": "19 03 0c 80 00 39 76 c0 00 3a 2f 60 00 39 ed 07 67"
    },
    {
        "request": "19 03 00 64 00 01 c6 0d",
        "answer": "19 03 02 00 02 19 87"
    },
    {
        "request": "19 03 00 66 00 01 67 cd",
        "answer": "19 03 02 00 00 98 46"
    },
    {
        "request": "19 03 00 84 00 06 86 39",
        "answer": "19 03 0c 80 00 39 76 c0 00 3a 2f c0 00 3a 2f a4 06"
    },
    {
        "request": "19 03 00 64 00 01 c6 0d",
        "answer": "19 03 02 00 02 19 87"
    },
    {
        "request": "19 03 00 66 00 01 67 cd",
        "answer": "19 03 02 00 00 98 46"
    },
    {
        "request": "19 03 00 84 00 06 86 39",
        "answer": "19 03 0c 80 00 39 76 c0 00 3a 2f c0 00 3a 2f a4 06"
    },
    {
        "request": "19 03 00 64 00 01 c6 0d",
        "answer": "19 03 02 00 02 19 87"
    },
    {
        "request": "19 03 00 66 00 01 67 cd",
        "answer": "19 03 02 00 00 98 46"
    },
    {
        "request": "19 03 00 84 00 06 86 39",
        "answer": "19 03 0c 80 00 39 76 c0 00 3a 2f 80 00 39 76 71 0c"
    },
    {
        "request": "19 10 00 6b 00 02 04 00 01 00 64 ff ff",
        "answer": "19 10 00 6b 00 02 33 cc"
    },
    {
        "request": "19 10 00 6b 00 02 04 00 01 00 03 ff ff",
        "answer": "19 10 00 6b 00 02 33 cc"
    },
    {
        "request": "19 10 00 6b 00 01 02 00 05 ff ff",
        "answer": "19 10 00 6b 00 01 73 cd"
    },
    {
        "request": "19 10 00 6b 00 01 02 00 06 ff ff",
        "answer": "19 10 00 6b 00 01 73 cd"
    },
    {
        "request": "19 03 00 64 00 01 c6 0d",
        "answer": "19 03 02 00 03 d8 47"
    },
    {
        "request": "19 03 00 66 00 01 67 cd",
        "answer": "19 03 02 00 00 98 46"
    },
    {
        "request": "19 03 00 84 00 06 86 39",
        "answer": "19 03 0c 2d 5c 3c 86 2d 5c 3c 86 b6 d8 3c 4a b6 03"
    },
    {
        "request": "19 03 00 64 00 01 c6 0d",
        "answer": "19 03 02 00 03 d8 47"
    },
    {
        "request": "19 03 00 66 00 01 67 cd",
        "answer": "19 03 02 00 00 98 46"
    },
    {
        "request": "19 03 00 84 00 06 86 39",
        "answer": "19 03 0c 47 74 3c 11 2d 5c 3c 86 47 74 3c 11 96 2b"
    },
    {
        "request": "19 03 00 64 00 01 c6 0d",
        "answer": "19 03 02 00 03 d8 47"
    },
    {
        "request": "19 03 00 66 00 01 67 cd",
        "answer": "19 03 02 00 00 98 46"
    },
    {
        "request": "19 03 00 84 00 06 86 39",
        "answer": "19 03 0c 88 7c 3b f9 2d 5c 3c 86 88 7c 3b f9 08 68"
    },
    {
        "request": "19 10 00 6b 00 02 04 00 01 00 64 ff ff",
        "answer": "19 10 00 6b 00 02 33 cc"
    },
    {
        "request": "19 10 00 6b 00 02 04 00 01 00 04 ff ff",
        "answer": "19 10 00 6b 00 02 33 cc"
    },
    {
        "request": "19 10 00 6b 00 01 02 00 05 ff ff",
        "answer": "19 10 00 6b 00 01 73 cd"
    },
    {
        "request": "19 10 00 6b 00 01 02 00 06 ff ff",
        "answer": "19 10 00 6b 00 01 73 cd"
    },
    {
        "request": "19 03 00 64 00 01 c6 0d",
        "answer": "19 03 02 00 04 99 85"
    },
    {
        "request": "19 03 00 66 00 01 67 cd",
        "answer": "19 03 02 00 00 98 46"
    },
    {
        "request": "19 03 00 84 00 06 86 39",
        "answer": "19 03 0c f4 e3 c0 ea f4 e3 c0 ea f4 e3 c0 ea 15 8c"
    },
    {
        "request": "19 03 00 64 00 01 c6 0d",
        "answer": "19 03 02 00 04 99 85"
    },
    {
        "request": "19 03 00 66 00 01 67 cd",
        "answer": "19 03 02 00 00 98 46"
    },
    {
        "request": "19 03 00 84 00 06 86 39",
        "answer": "19 03 0c f4 e3 c0 ea ec e4 c0 ea f4 e3 c0 ea 63 e6"
    },
    {
        "request": "19 03 00 64 00 01 c6 0d",
        "answer": "19 03 02 00 04 99 85"
    },
    {
        "request": "19 03 00 66 00 01 67 cd",
        "answer": "19 03 02 00 00 98 46"
    },
    {
        "request": "19 03 00 84 00 06 86 39",
        "answer": "19 03 0c f4 e3 c0 ea ec e4 c0 ea ec e4 c0 ea d4 87"
    },
    {
        "request": "19 03 00 64 00 01 c6 0d",
        "answer": "19 03 02 00 04 99 85"
    },
    {
        "request": "19 03 00 66 00 01 67 cd",
        "answer": "19 03 02 00 00 98 46"
    },
    {
        "request": "19 03 00 84 00 06 86 39",
        "answer": "19 03 0c fc e3 c0 ea ec e4 c0 ea fc e3 c0 ea 80 59"
    },
    {
        "request": "19 03 00 64 00 01 c6 0d",
        "answer": "19 03 02 00 04 99 85"
    },
    {
        "request": "19 03 00 66 00 01 67 cd",
        "answer": "19 03 02 00 00 98 46"
    },
    {
        "request": "19 03 00 84 00 06 86 39",
        "answer": "19 03 0c fc e3 c0 ea ec e4 c0 ea f4 e3 c0 ea 82 39"
    },
    {
        "request": "19 10 00 6b 00 02 04 00 01 00 64 ff ff",
        "answer": "19 10 00 6b 00 02 33 cc"
    },
    {
        "request": "19 10 00 6b 00 02 04 00 01 00 05 ff ff",
        "answer": "19 10 00 6b 00 02 33 cc"
    },
    {
        "request": "19 10 00 6b 00 01 02 00 06 ff ff",
        "answer": "19 10 00 6b 00 01 73 cd"
    },
    {
        "request": "19 03 00 64 00 01 c6 0d",
        "answer": "19 03 02 00 26 19 9c"
    },
    {
        "request": "19 03 00 64 00 01 c6 0d",
        "answer": "19 03 02 00 26 19 9c"
    },
    {
        "request": "19 03 00 64 00 01 c6 0d",
        "answer": "19 03 02 00 26 19 9c"
    },
    {
        "request": "19 03 00 64 00 01 c6 0d",
        "answer": "19 03 02 00 26 19 9c"
    },
    {
        "request": "19 03 00 64 00 01 c6 0d",
        "answer": "19 03 02 00 05 58 45"
    },
    {
        "request": "19 03 00 66 00 01 67 cd",
        "answer": "19 03 02 00 00 98 46"
    },
    {
        "request": "19 03 00 78 00 02 47 ca",
        "answer": "19 03 04 7f d2 c3 0d 4a ea"
    },
    {
        "request": "19 03 00 64 00 01 c6 0d",
        "answer": "19 03 02 00 05 58 45"
    },
    {
        "request": "19 03 00 66 00 01 67 cd",
        "answer": "19 03 02 00 00 98 46"
    },
    {
        "request": "19 03 00 78 00 02 47 ca",
        "answer": "19 03 04 7f d2 c3 0d 4a ea"
    },
    {
        "request": "19 10 00 6b 00 02 04 00 01 00 64 ff ff",
        "answer": "19 10 00 6b 00 02 33 cc"
    },
    {
        "request": "19 10 00 6b 00 02 04 00 01 00 06 ff ff",
        "answer": "19 10 00 6b 00 02 33 cc"
    },
    {
        "request": "19 10 00 6b 00 01 02 00 06 ff ff",
        "answer": "19 10 00 6b 00 01 73 cd"
    },
    {
        "request": "19 03 00 64 00 01 c6 0d",
        "answer": "19 03 02 00 06 18 44"
    },
    {
        "request": "19 03 00 66 00 01 67 cd",
        "answer": "19 03 02 00 00 98 46"
    },
    {
        "request": "19 03 00 78 00 02 47 ca",
        "answer": "19 03 04 d1 00 c3 75 ca 19"
    },
    {
        "request": "19 03 00 64 00 01 c6 0d",
        "answer": "19 03 02 00 26 19 9c"
    },
    {
        "request": "19 03 00 64 00 01 c6 0d",
        "answer": "19 03 02 00 26 19 9c"
    },
    {
        "request": "19 03 00 64 00 01 c6 0d",
        "answer": "19 03 02 00 06 18 44"
    },
    {
        "request": "19 03 00 66 00 01 67 cd",
        "answer": "19 03 02 20 00 81 86"
    },
    {
        "request": "19 03 00 78 00 02 47 ca",
        "answer": "19 03 04 33 d3 c3 76 4d 99"
    },
    {
        "request": "19 10 00 6b 00 02 04 00 01 00 64 ff ff",
        "answer": "19 10 00 6b 00 02 33 cc"
    },
    {
        "request": "19 10 00 6b 00 02 04 00 01 00 07 ff ff",
        "answer": "19 10 00 6b 00 02 33 cc"
    },
    {
        "request": "19 10 00 6b 00 01 02 00 06 ff ff",
        "answer": "19 10 00 6b 00 01 73 cd"
    },
    {
        "request": "19 03 00 64 00 01 c6 0d",
        "answer": "19 03 02 00 26 19 9c"
    },
    {
        "request": "19 03 00 64 00 01 c6 0d",
        "answer": "19 03 02 00 07 d9 84"
    },
    {
        "request": "19 03 00 66 00 01 67 cd",
        "answer": "19 03 02 00 00 98 46"
    },
    {
        "request": "19 03 00 78 00 02 47 ca",
        "answer": "19 03 04 00 90 c3 87 72 8d"
    },
    {
        "request": "19 03 00 64 00 01 c6 0d",
        "answer": "19 03 02 00 07 d9 84"
    },
    {
        "request": "19 03 00 66 00 01 67 cd",
        "answer": "19 03 02 00 00 98 46"
    },
    {
        "request": "19 03 00 78 00 02 47 ca",
        "answer": "19 03 04 fe b7 c3 86 32 ae"
    },
    {
        "request": "19 10 00 6b 00 02 04 00 01 00 64 ff ff",
        "answer": "19 10 00 6b 00 02 33 cc"
    },
    {
        "request": "19 10 00 6b 00 02 04 00 01 00 08 ff ff",
        "answer": "19 10 00 6b 00 02 33 cc"
    },
    {
        "request": "19 10 00 6b 00 01 02 00 06 ff ff",
        "answer": "19 10 00 6b 00 01 73 cd"
    },
    {
        "request": "19 03 00 64 00 01 c6 0d",
        "answer": "19 03 02 00 08 99 80"
    },
    {
        "request": "19 03 00 66 00 01 67 cd",
        "answer": "19 03 02 00 00 98 46"
    },
    {
        "request": "19 03 00 78 00 02 47 ca",
        "answer": "19 03 04 be 27 c2 eb e7 3e"
    },
    {
        "request": "19 03 00 64 00 01 c6 0d",
        "answer": "19 03 02 00 08 99 80"
    },
    {
        "request": "19 03 00 66 00 01 67 cd",
        "answer": "19 03 02 00 00 98 46"
    },
    {
        "request": "19 03 00 78 00 02 47 ca",
        "answer": "19 03 04 be 27 c2 eb e7 3e"
    },
    {
        "request": "19 03 00 64 00 01 c6 0d",
        "answer": "19 03 02 00 26 19 9c"
    },
    {
        "request": "19 03 00 64 00 01 c6 0d",
        "answer": "19 03 02 00 26 19 9c"
    },
    {
        "request": "19 03 00 64 00 01 c6 0d",
        "answer": "19 03 02 00 26 19 9c"
    },
    {
        "request": "19 03 00 64 00 01 c6 0d",
        "answer": "19 03 02 00 08 99 80"
    },
    {
        "request": "19 03 00 66 00 01 67 cd",
        "answer": "19 03 02 00 00 98 46"
    },
    {
        "request": "19 03 00 78 00 02 47 ca",
        "answer": "19 03 04 bb ad c2 eb c6 18"
    },
    {
        "request": "19 10 00 6b 00 02 04 00 01 00 64 ff ff",
        "answer": "19 10 00 6b 00 02 33 cc"
    },
    {
        "request": "19 10 00 6b 00 02 04 00 01 00 09 ff ff",
        "answer": "19 10 00 6b 00 02 33 cc"
    },
    {
        "request": "19 10 00 6b 00 01 02 00 06 ff ff",
        "answer": "19 10 00 6b 00 01 73 cd"
    },
    {
        "request": "19 03 00 64 00 01 c6 0d",
        "answer": "19 03 02 00 09 58 40"
    },
    {
        "request": "19 03 00 66 00 01 67 cd",
        "answer": "19 03 02 00 00 98 46"
    },
    {
        "request": "19 03 00 78 00 02 47 ca",
        "answer": "19 03 04 1f b7 c2 d3 c5 3d"
    },
    {
        "request": "19 03 00 64 00 01 c6 0d",
        "answer": "19 03 02 00 09 58 40"
    },
    {
        "request": "19 03 00 66 00 01 67 cd",
        "answer": "19 03 02 00 00 98 46"
    },
    {
        "request": "19 03 00 78 00 02 47 ca",
        "answer": "19 03 04 47 63 c2 d3 96 65"
    },
    {
        "request": "19 03 00 64 00 01 c6 0d",
        "answer": "19 03 02 00 09 58 40"
    },
    {
        "request": "19 03 00 66 00 01 67 cd",
        "answer": "19 03 02 00 00 98 46"
    },
    {
        "request": "19 03 00 78 00 02 47 ca",
        "answer": "19 03 04 1d 55 c2 d3 64 b3"
    },
    {
        "request": "19 10 00 6b 00 02 04 00 01 00 64 ff ff",
        "answer": "19 10 00 6b 00 02 33 cc"
    },
    {
        "request": "19 10 00 6b 00 02 04 00 01 00 0a ff ff",
        "answer": "19 10 00 6b 00 02 33 cc"
    },
    {
        "request": "19 10 00 6b 00 01 02 00 06 ff ff",
        "answer": "19 10 00 6b 00 01 73 cd"
    },
    {
        "request": "19 03 00 64 00 01 c6 0d",
        "answer": "19 03 02 00 0a 18 41"
    },
    {
        "request": "19 03 00 66 00 01 67 cd",
        "answer": "19 03 02 00 00 98 46"
    },
    {
        "request": "19 03 00 78 00 02 47 ca",
        "answer": "19 03 04 6b 5e c6 3e cd b4"
    },
    {
        "request": "19 03 00 64 00 01 c6 0d",
        "answer": "19 03 02 00 0a 18 41"
    },
    {
        "request": "19 03 00 66 00 01 67 cd",
        "answer": "19 03 02 00 00 98 46"
    },
    {
        "request": "19 03 00 78 00 02 47 ca",
        "answer": "19 03 04 6b 5e c6 3e cd b4"
    },
    {
        "request": "19 03 00 64 00 01 c6 0d",
        "answer": "19 03 02 00 0a 18 41"
    },
    {
        "request": "19 03 00 66 00 01 67 cd",
        "answer": "19 03 02 20 00 81 86"
    },
    {
        "request": "19 03 00 78 00 02 47 ca",
        "answer": "19 03 04 63 7d c6 3e 3e 1e"
    },
    {
        "request": "19 03 00 64 00 01 c6 0d",
        "answer": "19 03 02 00 0a 18 41"
    },
    {
        "request": "19 03 00 66 00 01 67 cd",
        "answer": "19 03 02 20 00 81 86"
    },
    {
        "request": "19 03 00 78 00 02 47 ca",
        "answer": "19 03 04 63 7d c6 3e 3e 1e"
    },
    {
        "request": "19 03 00 64 00 01 c6 0d",
        "answer": "19 03 02 00 0a 18 41"
    },
    {
        "request": "19 03 00 66 00 01 67 cd",
        "answer": "19 03 02 20 00 81 86"
    },
    {
        "request": "19 03 00 78 00 02 47 ca",
        "answer": "19 03 04 63 7d c6 3e 3e 1e"
    },
    {
        "request": "19 10 00 6b 00 02 04 00 01 00 64 ff ff",
        "answer": "19 10 00 6b 00 02 33 cc"
    },
    {
        "request": "19 10 00 6b 00 02 04 00 01 00 0b ff ff",
        "answer": "19 10 00 6b 00 02 33 cc"
    },
    {
        "request": "19 10 00 6b 00 01 02 00 06 ff ff",
        "answer": "19 10 00 6b 00 01 73 cd"
    },
    {
        "request": "19 03 00 64 00 01 c6 0d",
        "answer": "19 03 02 00 26 19 9c"
    },
    {
        "request": "19 03 00 64 00 01 c6 0d",
        "answer": "19 03 02 00 0b d9 81"
    },
    {
        "request": "19 03 00 66 00 01 67 cd",
        "answer": "19 03 02 00 00 98 46"
    },
    {
        "request": "19 03 00 78 00 02 47 ca",
        "answer": "19 03 04 77 29 cf 7c fc 5f"
    },
    {
        "request": "19 03 00 64 00 01 c6 0d",
        "answer": "19 03 02 00 0b d9 81"
    },
    {
        "request": "19 03 00 66 00 01 67 cd",
        "answer": "19 03 02 00 00 98 46"
    },
    {
        "request": "19 03 00 78 00 02 47 ca",
        "answer": "19 03 04 60 ef cf 7d d8 16"
    },
    {
        "request": "19 10 00 6b 00 02 04 00 01 00 64 ff ff",
        "answer": "19 10 00 6b 00 02 33 cc"
    },
    {
        "request": "19 10 00 6b 00 02 04 00 01 00 0c ff ff",
        "answer": "19 10 00 6b 00 02 33 cc"
    },
    {
        "request": "19 10 00 6b 00 01 02 00 06 ff ff",
        "answer": "19 10 00 6b 00 01 73 cd"
    },
    {
        "request": "19 03 00 64 00 01 c6 0d",
        "answer": "19 03 02 00 0c 98 43"
    },
    {
        "request": "19 03 00 66 00 01 67 cd",
        "answer": "19 03 02 00 00 98 46"
    },
    {
        "request": "19 03 00 78 00 02 47 ca",
        "answer": "19 03 04 34 51 cd ce e8 d7"
    },
    {
        "request": "19 03 00 64 00 01 c6 0d",
        "answer": "19 03 02 00 0c 98 43"
    },
    {
        "request": "19 03 00 66 00 01 67 cd",
        "answer": "19 03 02 00 00 98 46"
    },
    {
        "request": "19 03 00 78 00 02 47 ca",
        "answer": "19 03 04 a6 ea cd ce b4 4a"
    },
    {
        "request": "19 03 00 64 00 01 c6 0d",
        "answer": "19 03 02 00 0c 98 43"
    },
    {
        "request": "19 03 00 66 00 01 67 cd",
        "answer": "19 03 02 00 00 98 46"
    },
    {
        "request": "19 03 00 78 00 02 47 ca",
        "answer": "19 03 04 f9 ee cd cd a7 9e"
    },
    {
        "request": "19 03 00 64 00 01 c6 0d",
        "answer": "19 03 02 00 0c 98 43"
    },
    {
        "request": "19 03 00 66 00 01 67 cd",
        "answer": "19 03 02 00 00 98 46"
    },
    {
        "request": "19 03 00 78 00 02 47 ca",
        "answer": "19 03 04 a5 bc cd ce 54 1e"
    },
    {
        "request": "19 10 00 6b 00 02 04 00 01 00 64 ff ff",
        "answer": "19 10 00 6b 00 02 33 cc"
    },
    {
        "request": "19 10 00 6b 00 02 04 00 01 00 0d ff ff",
        "answer": "19 10 00 6b 00 02 33 cc"
    },
    {
        "request": "19 10 00 6b 00 01 02 00 06 ff ff",
        "answer": "19 10 00 6b 00 01 73 cd"
    },
    {
        "request": "19 03 00 64 00 01 c6 0d",
        "answer": "19 03 02 00 0d 59 83"
    },
    {
        "request": "19 03 00 66 00 01 67 cd",
        "answer": "19 03 02 00 00 98 46"
    },
    {
        "request": "19 03 00 78 00 02 47 ca",
        "answer": "19 03 04 54 76 cc b0 c7 6c"
    },
    {
        "request": "19 03 00 64 00 01 c6 0d",
        "answer": "19 03 02 00 26 19 9c"
    },
    {
        "request": "19 03 00 64 00 01 c6 0d",
        "answer": "19 03 02 00 0d 59 83"
    },
    {
        "request": "19 03 00 66 00 01 67 cd",
        "answer": "19 03 02 00 00 98 46"
    },
    {
        "request": "19 03 00 78 00 02 47 ca",
        "answer": "19 03 04 7c 6e cc b0 4e cb"
    },
    {
        "request": "19 03 00 64 00 01 c6 0d",
        "answer": "19 03 02 00 0d 59 83"
    },
    {
        "request": "19 03 00 66 00 01 67 cd",
        "answer": "19 03 02 00 00 98 46"
    },
    {
        "request": "19 03 00 78 00 02 47 ca",
        "answer": "19 03 04 7c 6e cc b0 4e cb"
    },
    {
        "request": "19 10 00 6b 00 02 04 00 01 00 64 ff ff",
        "answer": "19 10 00 6b 00 02 33 cc"
    },
    {
        "request": "19 10 00 6b 00 02 04 00 01 00 0e ff ff",
        "answer": "19 10 00 6b 00 02 33 cc"
    },
    {
        "request": "19 10 00 6b 00 01 02 00 06 ff ff",
        "answer": "19 10 00 6b 00 01 73 cd"
    },
    {
        "request": "19 03 00 64 00 01 c6 0d",
        "answer": "19 03 02 00 0e 19 82"
    },
    {
        "request": "19 03 00 66 00 01 67 cd",
        "answer": "19 03 02 00 00 98 46"
    },
    {
        "request": "19 03 00 80 00 04 46 39",
        "answer": "19 03 08 4f 44 44 5b 36 b6 43 c7 5f 46"
    },
    {
        "request": "19 03 00 64 00 01 c6 0d",
        "answer": "19 03 02 00 0e 19 82"
    },
    {
        "request": "19 03 00 66 00 01 67 cd",
        "answer": "19 03 02 00 00 98 46"
    },
    {
        "request": "19 03 00 80 00 04 46 39",
        "answer": "19 03 08 4f 44 44 5b 36 b6 43 c7 5f 46"
    },
    {
        "request": "19 03 00 64 00 01 c6 0d",
        "answer": "19 03 02 00 0e 19 82"
    },
    {
        "request": "19 03 00 66 00 01 67 cd",
        "answer": "19 03 02 00 00 98 46"
    },
    {
        "request": "19 03 00 80 00 04 46 39",
        "answer": "19 03 08 4f 44 44 5b 36 b6 43 c7 5f 46"
    },
    {
        "request": "19 10 00 6b 00 02 04 00 01 00 64 ff ff",
        "answer": "19 10 00 6b 00 02 33 cc"
    },
    {
        "request": "19 10 00 6b 00 02 04 00 01 00 0f ff ff",
        "answer": "19 10 00 6b 00 02 33 cc"
    },
    {
        "request": "19 10 00 6b 00 01 02 00 06 ff ff",
        "answer": "19 10 00 6b 00 01 73 cd"
    },
    {
        "request": "19 03 00 64 00 01 c6 0d",
        "answer": "19 03 02 00 0f d8 42"
    },
    {
        "request": "19 03 00 66 00 01 67 cd",
        "answer": "19 03 02 00 00 98 46"
    },
    {
        "request": "19 03 00 80 00 04 46 39",
        "answer": "19 03 08 f0 75 c3 b3 1c 4e c3 c7 a2 f8"
    },
    {
        "request": "19 03 00 64 00 01 c6 0d",
        "answer": "19 03 02 00 0f d8 42"
    },
    {
        "request": "19 03 00 66 00 01 67 cd",
        "answer": "19 03 02 00 00 98 46"
    },
    {
        "request": "19 03 00 80 00 04 46 39",
        "answer": "19 03 08 f0 75 c3 b3 1c 4e c3 c7 a2 f8"
    },
    {
        "request": "19 03 00 64 00 01 c6 0d",
        "answer": "19 03 02 00 0f d8 42"
    },
    {
        "request": "19 03 00 66 00 01 67 cd",
        "answer": "19 03 02 20 00 81 86"
    },
    {
        "request": "19 03 00 80 00 04 46 39",
        "answer": "19 03 08 f0 75 c3 b3 1c 4e c3 c7 a2 f8"
    },
    {
        "request": "19 10 00 6b 00 02 04 00 01 00 64 ff ff",
        "answer": "19 10 00 6b 00 02 33 cc"
    },
    {
        "request": "19 10 00 6b 00 02 04 00 01 00 10 ff ff",
        "answer": "19 10 00 6b 00 02 33 cc"
    },
    {
        "request": "19 10 00 6b 00 01 02 00 06 ff ff",
        "answer": "19 10 00 6b 00 01 73 cd"
    },
    {
        "request": "19 03 00 64 00 01 c6 0d",
        "answer": "19 03 02 00 10 99 8a"
    },
    {
        "request": "19 03 00 66 00 01 67 cd",
        "answer": "19 03 02 00 00 98 46"
    },
    {
        "request": "19 03 00 80 00 04 46 39",
        "answer": "19 03 08 5d 6f 44 5b 3e ed 43 c7 37 22"
    },
    {
        "request": "19 03 00 64 00 01 c6 0d",
        "answer": "19 03 02 00 10 99 8a"
    },
    {
        "request": "19 03 00 66 00 01 67 cd",
        "answer": "19 03 02 00 00 98 46"
    },
    {
        "request": "19 03 00 80 00 04 46 39",
        "answer": "19 03 08 5d 6f 44 5b 3e ed 43 c7 37 22"
    },
    {
        "request": "19 03 00 64 00 01 c6 0d",
        "answer": "19 03 02 00 10 99 8a"
    },
    {
        "request": "19 03 00 66 00 01 67 cd",
        "answer": "19 03 02 20 00 81 86"
    },
    {
        "request": "19 03 00 80 00 04 46 39",
        "answer": "19 03 08 5d 6f 44 5b 3e ed 43 c7 37 22"
    },
    {
        "request": "19 10 00 6b 00 02 04 00 01 00 64 ff ff",
        "answer": "19 10 00 6b 00 02 33 cc"
    },
    {
        "request": "19 10 00 6b 00 02 04 00 01 00 11 ff ff",
        "answer": "19 10 00 6b 00 02 33 cc"
    },
    {
        "request": "19 10 00 6b 00 01 02 00 06 ff ff",
        "answer": "19 10 00 6b 00 01 73 cd"
    },
    {
        "request": "19 03 00 64 00 01 c6 0d",
        "answer": "19 03 02 00 11 58 4a"
    },
    {
        "request": "19 03 00 66 00 01 67 cd",
        "answer": "19 03 02 00 00 98 46"
    },
    {
        "request": "19 03 00 80 00 04 46 39",
        "answer": "19 03 08 fb b1 45 2f 4f 9a 45 7d 1b 92"
    },
    {
        "request": "19 03 00 64 00 01 c6 0d",
        "answer": "19 03 02 00 11 58 4a"
    },
    {
        "request": "19 03 00 66 00 01 67 cd",
        "answer": "19 03 02 00 00 98 46"
    },
    {
        "request": "19 03 00 80 00 04 46 39",
        "answer": "19 03 08 fb b1 45 2f 4f 9a 45 7d 1b 92"
    },
    {
        "request": "19 03 00 64 00 01 c6 0d",
        "answer": "19 03 02 00 11 58 4a"
    },
    {
        "request": "19 03 00 66 00 01 67 cd",
        "answer": "19 03 02 00 00 98 46"
    },
    {
        "request": "19 03 00 80 00 04 46 39",
        "answer": "19 03 08 fb b1 45 2f 4f 9a 45 7d 1b 92"
    },
    {
        "request": "19 10 00 6b 00 02 04 00 01 00 64 ff ff",
        "answer": "19 10 00 6b 00 02 33 cc"
    },
    {
        "request": "19 10 00 6b 00 02 04 00 01 00 12 ff ff",
        "answer": "19 10 00 6b 00 02 33 cc"
    },
    {
        "request": "19 10 00 6b 00 01 02 00 06 ff ff",
        "answer": "19 10 00 6b 00 01 73 cd"
    },
    {
        "request": "19 03 00 64 00 01 c6 0d",
        "answer": "19 03 02 00 12 18 4b"
    },
    {
        "request": "19 03 00 66 00 01 67 cd",
        "answer": "19 03 02 00 00 98 46"
    },
    {
        "request": "19 03 00 80 00 04 46 39",
        "answer": "19 03 08 c6 b0 45 2a 6d 00 c5 7d 4e 48"
    },
    {
        "request": "19 03 00 64 00 01 c6 0d",
        "answer": "19 03 02 00 12 18 4b"
    },
    {
        "request": "19 03 00 66 00 01 67 cd",
        "answer": "19 03 02 00 00 98 46"
    },
    {
        "request": "19 03 00 80 00 04 46 39",
        "answer": "19 03 08 c6 b0 45 2a 6d 00 c5 7d 4e 48"
    },
    {
        "request": "19 03 00 64 00 01 c6 0d",
        "answer": "19 03 02 00 12 18 4b"
    },
    {
        "request": "19 03 00 66 00 01 67 cd",
        "answer": "19 03 02 00 00 98 46"
    },
    {
        "request": "19 03 00 80 00 04 46 39",
        "answer": "19 03 08 c6 b0 45 2a 6d 00 c5 7d 4e 48"
    },
    {
        "request": "19 10 00 6b 00 02 04 00 01 00 64 ff ff",
        "answer": "19 10 00 6b 00 02 33 cc"
    },
    {
        "request": "19 10 00 6b 00 02 04 00 01 00 13 ff ff",
        "answer": "19 10 00 6b 00 02 33 cc"
    },
    {
        "request": "19 10 00 6b 00 01 02 00 06 ff ff",
        "answer": "19 10 00 6b 00 01 73 cd"
    },
    {
        "request": "19 03 00 64 00 01 c6 0d",
        "answer": "19 03 02 00 13 d9 8b"
    },
    {
        "request": "19 03 00 66 00 01 67 cd",
        "answer": "19 03 02 00 00 98 46"
    },
    {
        "request": "19 03 00 80 00 04 46 39",
        "answer": "19 03 08 fa ed 45 2f 4e fe 45 7d 06 78"
    },
    {
        "request": "19 03 00 64 00 01 c6 0d",
        "answer": "19 03 02 00 13 d9 8b"
    },
    {
        "request": "19 03 00 66 00 01 67 cd",
        "answer": "19 03 02 00 00 98 46"
    },
    {
        "request": "19 03 00 80 00 04 46 39",
        "answer": "19 03 08 fa ed 45 2f 4e fe 45 7d 06 78"
    },
    {
        "request": "19 03 00 64 00 01 c6 0d",
        "answer": "19 03 02 00 13 d9 8b"
    },
    {
        "request": "19 03 00 66 00 01 67 cd",
        "answer": "19 03 02 00 00 98 46"
    },
    {
        "request": "19 03 00 80 00 04 46 39",
        "answer": "19 03 08 fa ed 45 2f 4e fe 45 7d 06 78"
    },
    {
        "request": "19 10 00 6b 00 02 04 00 01 00 64 ff ff",
        "answer": "19 10 00 6b 00 02 33 cc"
    },
    {
        "request": "19 10 00 6b 00 02 04 00 01 00 14 ff ff",
        "answer": "19 10 00 6b 00 02 33 cc"
    },
    {
        "request": "19 10 00 6b 00 01 02 00 06 ff ff",
        "answer": "19 10 00 6b 00 01 73 cd"
    },
    {
        "request": "19 03 00 64 00 01 c6 0d",
        "answer": "19 03 02 00 14 98 49"
    },
    {
        "request": "19 03 00 66 00 01 67 cd",
        "answer": "19 03 02 00 00 98 46"
    },
    {
        "request": "19 03 00 80 00 04 46 39",
        "answer": "19 03 08 42 7c 44 61 4f 9a 45 7d a5 9f"
    },
    {
        "request": "19 03 00 64 00 01 c6 0d",
        "answer": "19 03 02 00 14 98 49"
    },
    {
        "request": "19 03 00 66 00 01 67 cd",
        "answer": "19 03 02 00 00 98 46"
    },
    {
        "request": "19 03 00 80 00 04 46 39",
        "answer": "19 03 08 42 7c 44 61 4f 9a 45 7d a5 9f"
    },
    {
        "request": "19 03 00 64 00 01 c6 0d",
        "answer": "19 03 02 00 14 98 49"
    },
    {
        "request": "19 03 00 66 00 01 67 cd",
        "answer": "19 03 02 00 00 98 46"
    },
    {
        "request": "19 03 00 80 00 04 46 39",
        "answer": "19 03 08 42 7c 44 61 4f 9a 45 7d a5 9f"
    },
    {
        "request": "19 03 00 64 00 01 c6 0d",
        "answer": "19 03 02 00 14 98 49"
    },
    {
        "request": "19 03 00 66 00 01 67 cd",
        "answer": "19 03 02 00 00 98 46"
    },
    {
        "request": "19 03 00 80 00 04 46 39",
        "answer": "19 03 08 42 7c 44 61 4f 9a 45 7d a5 9f"
    },
    {
        "request": "19 03 00 64 00 01 c6 0d",
        "answer": "19 03 02 00 14 98 49"
    },
    {
        "request": "19 03 00 66 00 01 67 cd",
        "answer": "19 03 02 00 00 98 46"
    },
    {
        "request": "19 03 00 80 00 04 46 39",
        "answer": "19 03 08 42 7c 44 61 4f 9a 45 7d a5 9f"
    },
    {
        "request": "19 03 00 64 00 01 c6 0d",
        "answer": "19 03 02 00 14 98 49"
    },
    {
        "request": "19 03 00 66 00 01 67 cd",
        "answer": "19 03 02 00 00 98 46"
    },
    {
        "request": "19 03 00 80 00 04 46 39",
        "answer": "19 03 08 42 7c 44 61 4f 9a 45 7d a5 9f"
    },
    {
        "request": "19 10 00 6b 00 02 04 00 01 00 64 ff ff",
        "answer": "19 10 00 6b 00 02 33 cc"
    },
    {
        "request": "19 10 00 6b 00 02 04 00 01 00 15 ff ff",
        "answer": "19 10 00 6b 00 02 33 cc"
    },
    {
        "request": "19 10 00 6b 00 01 02 00 06 ff ff",
        "answer": "19 10 00 6b 00 01 73 cd"
    },
    {
        "request": "19 03 00 64 00 01 c6 0d",
        "answer": "19 03 02 00 15 59 89"
    },
    {
        "request": "19 03 00 66 00 01 67 cd",
        "answer": "19 03 02 00 00 98 46"
    },
    {
        "request": "19 03 00 80 00 04 46 39",
        "answer": "19 03 08 7f c0 c3 c0 87 98 c5 72 07 13"
    },
    {
        "request": "19 03 00 64 00 01 c6 0d",
        "answer": "19 03 02 00 15 59 89"
    },
    {
        "request": "19 03 00 66 00 01 67 cd",
        "answer": "19 03 02 00 00 98 46"
    },
    {
        "request": "19 03 00 80 00 04 46 39",
        "answer": "19 03 08 12 77 c3 cd 9b c1 c5 6b 3c 21"
    },
    {
        "request": "19 03 00 64 00 01 c6 0d",
        "answer": "19 03 02 00 15 59 89"
    },
    {
        "request": "19 03 00 66 00 01 67 cd",
        "answer": "19 03 02 00 00 98 46"
    },
    {
        "request": "19 03 00 80 00 04 46 39",
        "answer": "19 03 08 9d e8 c3 b7 13 a9 c5 77 69 77"
    },
    {
        "request": "19 03 00 64 00 01 c6 0d",
        "answer": "19 03 02 00 15 59 89"
    },
    {
        "request": "19 03 00 66 00 01 67 cd",
        "answer": "19 03 02 00 00 98 46"
    },
    {
        "request": "19 03 00 80 00 04 46 39",
        "answer": "19 03 08 82 d0 c3 ad f6 d6 c5 7b ce eb"
    },
    {
        "request": "19 03 00 64 00 01 c6 0d",
        "answer": "19 03 02 00 15 59 89"
    },
    {
        "request": "19 03 00 66 00 01 67 cd",
        "answer": "19 03 02 00 00 98 46"
    },
    {
        "request": "19 03 00 80 00 04 46 39",
        "answer": "19 03 08 57 89 c3 d4 4b 14 c5 67 d3 1e"
    },
    {
        "request": "19 10 00 6b 00 02 04 00 01 00 64 ff ff",
        "answer": "19 10 00 6b 00 02 33 cc"
    },
    {
        "request": "19 10 00 6b 00 02 04 00 01 00 17 ff ff",
        "answer": "19 10 00 6b 00 02 33 cc"
    },
    {
        "request": "19 10 00 6b 00 01 02 00 06 ff ff",
        "answer": "19 10 00 6b 00 01 73 cd"
    },
    {
        "request": "19 03 00 64 00 01 c6 0d",
        "answer": "19 03 02 00 17 d8 48"
    },
    {
        "request": "19 03 00 66 00 01 67 cd",
        "answer": "19 03 02 00 00 98 46"
    },
    {
        "request": "19 03 00 80 00 04 46 39",
        "answer": "19 03 08 41 06 44 2e 29 53 43 47 26 86"
    },
    {
        "request": "19 03 00 64 00 01 c6 0d",
        "answer": "19 03 02 00 17 d8 48"
    },
    {
        "request": "19 03 00 66 00 01 67 cd",
        "answer": "19 03 02 00 00 98 46"
    },
    {
        "request": "19 03 00 80 00 04 46 39",
        "answer": "19 03 08 41 06 44 2e 29 53 43 47 26 86"
    },
    {
        "request": "19 03 00 64 00 01 c6 0d",
        "answer": "19 03 02 00 17 d8 48"
    },
    {
        "request": "19 03 00 66 00 01 67 cd",
        "answer": "19 03 02 00 00 98 46"
    },
    {
        "request": "19 03 00 80 00 04 46 39",
        "answer": "19 03 08 41 06 44 2e 29 53 43 47 26 86"
    },
    {
        "request": "19 03 00 64 00 01 c6 0d",
        "answer": "19 03 02 00 17 d8 48"
    },
    {
        "request": "19 03 00 66 00 01 67 cd",
        "answer": "19 03 02 00 00 98 46"
    },
    {
        "request": "19 03 00 80 00 04 46 39",
        "answer": "19 03 08 41 06 44 2e 29 53 43 47 26 86"
    },
    {
        "request": "19 03 00 64 00 01 c6 0d",
        "answer": "19 03 02 00 17 d8 48"
    },
    {
        "request": "19 03 00 66 00 01 67 cd",
        "answer": "19 03 02 00 00 98 46"
    },
    {
        "request": "19 03 00 80 00 04 46 39",
        "answer": "19 03 08 41 06 44 2e 29 53 43 47 26 86"
    },
    {
        "request": "19 10 00 6b 00 02 04 00 01 00 64 ff ff",
        "answer": "19 10 00 6b 00 02 33 cc"
    },
    {
        "request": "19 10 00 6b 00 02 04 00 01 00 18 ff ff",
        "answer": "19 10 00 6b 00 02 33 cc"
    },
    {
        "request": "19 10 00 6b 00 01 02 00 06 ff ff",
        "answer": "19 10 00 6b 00 01 73 cd"
    },
    {
        "request": "19 03 00 64 00 01 c6 0d",
        "answer": "19 03 02 00 18 98 4c"
    },
    {
        "request": "19 03 00 66 00 01 67 cd",
        "answer": "19 03 02 00 00 98 46"
    },
    {
        "request": "19 03 00 80 00 04 46 39",
        "answer": "19 03 08 ac 2f c4 45 25 a5 c3 47 e9 3e"
    },
    {
        "request": "19 03 00 64 00 01 c6 0d",
        "answer": "19 03 02 00 18 98 4c"
    },
    {
        "request": "19 03 00 66 00 01 67 cd",
        "answer": "19 03 02 00 00 98 46"
    },
    {
        "request": "19 03 00 80 00 04 46 39",
        "answer": "19 03 08 ac 2f c4 45 25 a5 c3 47 e9 3e"
    },
    {
        "request": "19 03 00 64 00 01 c6 0d",
        "answer": "19 03 02 00 18 98 4c"
    },
    {
        "request": "19 03 00 66 00 01 67 cd",
        "answer": "19 03 02 00 00 98 46"
    },
    {
        "request": "19 03 00 80 00 04 46 39",
        "answer": "19 03 08 ac 2f c4 45 25 a5 c3 47 e9 3e"
    },
    {
        "request": "19 03 00 64 00 01 c6 0d",
        "answer": "19 03 02 00 18 98 4c"
    },
    {
        "request": "19 03 00 66 00 01 67 cd",
        "answer": "19 03 02 00 00 98 46"
    },
    {
        "request": "19 03 00 80 00 04 46 39",
        "answer": "19 03 08 ac 2f c4 45 25 a5 c3 47 e9 3e"
    },
    {
        "request": "19 10 00 6b 00 02 04 00 01 00 64 ff ff",
        "answer": "19 10 00 6b 00 02 33 cc"
    },
    {
        "request": "19 10 00 6b 00 02 04 00 01 00 19 ff ff",
        "answer": "19 10 00 6b 00 02 33 cc"
    },
    {
        "request": "19 10 00 6b 00 01 02 00 06 ff ff",
        "answer": "19 10 00 6b 00 01 73 cd"
    },
    {
        "request": "19 03 00 64 00 01 c6 0d",
        "answer": "19 03 02 00 19 59 8c"
    },
    {
        "request": "19 03 00 66 00 01 67 cd",
        "answer": "19 03 02 00 00 98 46"
    },
    {
        "request": "19 03 00 80 00 04 46 39",
        "answer": "19 03 08 4f 92 44 2e 35 c6 43 47 65 7f"
    },
    {
        "request": "19 03 00 64 00 01 c6 0d",
        "answer": "19 03 02 00 19 59 8c"
    },
    {
        "request": "19 03 00 66 00 01 67 cd",
        "answer": "19 03 02 00 00 98 46"
    },
    {
        "request": "19 03 00 80 00 04 46 39",
        "answer": "19 03 08 4f 92 44 2e 35 c6 43 47 65 7f"
    },
    {
        "request": "19 03 00 64 00 01 c6 0d",
        "answer": "19 03 02 00 19 59 8c"
    },
    {
        "request": "19 03 00 66 00 01 67 cd",
        "answer": "19 03 02 00 00 98 46"
    },
    {
        "request": "19 03 00 80 00 04 46 39",
        "answer": "19 03 08 4f 92 44 2e 35 c6 43 47 65 7f"
    },
    {
        "request": "19 03 00 64 00 01 c6 0d",
        "answer": "19 03 02 00 19 59 8c"
    },
    {
        "request": "19 03 00 66 00 01 67 cd",
        "answer": "19 03 02 00 00 98 46"
    },
    {
        "request": "19 03 00 80 00 04 46 39",
        "answer": "19 03 08 4f 92 44 2e 35 c6 43 47 65 7f"
    },
    {
        "request": "19 10 00 6b 00 02 04 00 01 00 64 ff ff",
        "answer": "19 10 00 6b 00 02 33 cc"
    },
    {
        "request": "19 10 00 6b 00 02 04 00 01 00 1a ff ff",
        "answer": "19 10 00 6b 00 02 33 cc"
    },
    {
        "request": "19 10 00 6b 00 01 02 00 06 ff ff",
        "answer": "19 10 00 6b 00 01 73 cd"
    },
    {
        "request": "19 03 00 64 00 01 c6 0d",
        "answer": "19 03 02 00 1a 19 8d"
    },
    {
        "request": "19 03 00 66 00 01 67 cd",
        "answer": "19 03 02 00 00 98 46"
    },
    {
        "request": "19 03 00 80 00 04 46 39",
        "answer": "19 03 08 af 82 43 67 29 53 43 47 b1 33"
    },
    {
        "request": "19 03 00 64 00 01 c6 0d",
        "answer": "19 03 02 00 1a 19 8d"
    },
    {
        "request": "19 03 00 66 00 01 67 cd",
        "answer": "19 03 02 00 00 98 46"
    },
    {
        "request": "19 03 00 80 00 04 46 39",
        "answer": "19 03 08 af 82 43 67 29 53 43 47 b1 33"
    },
    {
        "request": "19 03 00 64 00 01 c6 0d",
        "answer": "19 03 02 00 1a 19 8d"
    },
    {
        "request": "19 03 00 66 00 01 67 cd",
        "answer": "19 03 02 00 00 98 46"
    },
    {
        "request": "19 03 00 80 00 04 46 39",
        "answer": "19 03 08 af 82 43 67 29 53 43 47 b1 33"
    },
    {
        "request": "19 03 00 64 00 01 c6 0d",
        "answer": "19 03 02 00 1a 19 8d"
    },
    {
        "request": "19 03 00 66 00 01 67 cd",
        "answer": "19 03 02 00 00 98 46"
    },
    {
        "request": "19 03 00 80 00 04 46 39",
        "answer": "19 03 08 af 82 43 67 29 53 43 47 b1 33"
    },
    {
        "request": "19 03 00 64 00 01 c6 0d",
        "answer": "19 03 02 00 1a 19 8d"
    },
    {
        "request": "19 03 00 66 00 01 67 cd",
        "answer": "19 03 02 00 00 98 46"
    },
    {
        "request": "19 03 00 80 00 04 46 39",
        "answer": "19 03 08 af 82 43 67 29 53 43 47 b1 33"
    },
    {
        "request": "19 10 00 6b 00 02 04 00 01 00 64 ff ff",
        "answer": "19 10 00 6b 00 02 33 cc"
    },
    {
        "request": "19 10 00 6b 00 02 04 00 01 00 1b ff ff",
        "answer": "19 10 00 6b 00 02 33 cc"
    },
    {
        "request": "19 10 00 6b 00 01 02 00 06 ff ff",
        "answer": "19 10 00 6b 00 01 73 cd"
    },
    {
        "request": "19 03 00 64 00 01 c6 0d",
        "answer": "19 03 02 00 1b d8 4d"
    },
    {
        "request": "19 03 00 66 00 01 67 cd",
        "answer": "19 03 02 00 00 98 46"
    },
    {
        "request": "19 03 00 80 00 04 46 39",
        "answer": "19 03 08 46 a7 c4 13 25 a5 c3 47 27 0d"
    },
    {
        "request": "19 03 00 64 00 01 c6 0d",
        "answer": "19 03 02 00 1b d8 4d"
    },
    {
        "request": "19 03 00 66 00 01 67 cd",
        "answer": "19 03 02 00 00 98 46"
    },
    {
        "request": "19 03 00 80 00 04 46 39",
        "answer": "19 03 08 46 a7 c4 13 25 a5 c3 47 27 0d"
    },
    {
        "request": "19 03 00 64 00 01 c6 0d",
        "answer": "19 03 02 00 1b d8 4d"
    },
    {
        "request": "19 03 00 66 00 01 67 cd",
        "answer": "19 03 02 20 00 81 86"
    },
    {
        "request": "19 03 00 80 00 04 46 39",
        "answer": "19 03 08 46 a7 c4 13 25 a5 c3 47 27 0d"
    },
    {
        "request": "19 03 00 64 00 01 c6 0d",
        "answer": "19 03 02 00 1b d8 4d"
    },
    {
        "request": "19 03 00 66 00 01 67 cd",
        "answer": "19 03 02 20 00 81 86"
    },
    {
        "request": "19 03 00 80 00 04 46 39",
        "answer": "19 03 08 46 a7 c4 13 25 a5 c3 47 27 0d"
    },
    {
        "request": "19 03 00 64 00 01 c6 0d",
        "answer": "19 03 02 00 1b d8 4d"
    },
    {
        "request": "19 03 00 66 00 01 67 cd",
        "answer": "19 03 02 20 00 81 86"
    },
    {
        "request": "19 03 00 80 00 04 46 39",
        "answer": "19 03 08 46 a7 c4 13 25 a5 c3 47 27 0d"
    },
    {
        "request": "19 03 00 64 00 01 c6 0d",
        "answer": "19 03 02 00 1b d8 4d"
    },
    {
        "request": "19 03 00 66 00 01 67 cd",
        "answer": "19 03 02 20 00 81 86"
    },
    {
        "request": "19 03 00 80 00 04 46 39",
        "answer": "19 03 08 46 a7 c4 13 25 a5 c3 47 27 0d"
    },
    {
        "request": "19 10 00 6b 00 02 04 00 01 00 64 ff ff",
        "answer": "19 10 00 6b 00 02 33 cc"
    },
    {
        "request": "19 10 00 6b 00 02 04 00 01 00 1c ff ff",
        "answer": "19 10 00 6b 00 02 33 cc"
    },
    {
        "request": "19 10 00 6b 00 01 02 00 06 ff ff",
        "answer": "19 10 00 6b 00 01 73 cd"
    },
    {
        "request": "19 03 00 64 00 01 c6 0d",
        "answer": "19 03 02 00 1c 99 8f"
    },
    {
        "request": "19 03 00 66 00 01 67 cd",
        "answer": "19 03 02 00 00 98 46"
    },
    {
        "request": "19 03 00 80 00 04 46 39",
        "answer": "19 03 08 cc 98 43 67 35 c6 43 47 5b 73"
    },
    {
        "request": "19 03 00 64 00 01 c6 0d",
        "answer": "19 03 02 00 1c 99 8f"
    },
    {
        "request": "19 03 00 66 00 01 67 cd",
        "answer": "19 03 02 00 00 98 46"
    },
    {
        "request": "19 03 00 80 00 04 46 39",
        "answer": "19 03 08 cc 98 43 67 35 c6 43 47 5b 73"
    },
    {
        "request": "19 03 00 64 00 01 c6 0d",
        "answer": "19 03 02 00 1c 99 8f"
    },
    {
        "request": "19 03 00 66 00 01 67 cd",
        "answer": "19 03 02 20 00 81 86"
    },
    {
        "request": "19 03 00 80 00 04 46 39",
        "answer": "19 03 08 cc 98 43 67 35 c6 43 47 5b 73"
    },
    {
        "request": "19 03 00 64 00 01 c6 0d",
        "answer": "19 03 02 00 1c 99 8f"
    },
    {
        "request": "19 03 00 66 00 01 67 cd",
        "answer": "19 03 02 20 00 81 86"
    },
    {
        "request": "19 03 00 80 00 04 46 39",
        "answer": "19 03 08 cc 98 43 67 35 c6 43 47 5b 73"
    },
    {
        "request": "19 03 00 64 00 01 c6 0d",
        "answer": "19 03 02 00 1c 99 8f"
    },
    {
        "request": "19 03 00 66 00 01 67 cd",
        "answer": "19 03 02 20 00 81 86"
    },
    {
        "request": "19 03 00 80 00 04 46 39",
        "answer": "19 03 08 cc 98 43 67 35 c6 43 47 5b 73"
    },
    {
        "request": "19 10 00 6b 00 02 04 00 01 00 64 ff ff",
        "answer": "19 10 00 6b 00 02 33 cc"
    },
    {
        "request": "19 10 00 6b 00 02 04 00 01 00 1d ff ff",
        "answer": "19 10 00 6b 00 02 33 cc"
    },
    {
        "request": "19 10 00 6b 00 01 02 00 06 ff ff",
        "answer": "19 10 00 6b 00 01 73 cd"
    },
    {
        "request": "19 03 00 64 00 01 c6 0d",
        "answer": "19 03 02 00 1d 58 4f"
    },
    {
        "request": "19 03 00 66 00 01 67 cd",
        "answer": "19 03 02 00 00 98 46"
    },
    {
        "request": "19 03 00 80 00 04 46 39",
        "answer": "19 03 08 70 e5 43 9a 36 b6 43 c7 90 be"
    },
    {
        "request": "19 03 00 64 00 01 c6 0d",
        "answer": "19 03 02 00 1d 58 4f"
    },
    {
        "request": "19 03 00 66 00 01 67 cd",
        "answer": "19 03 02 00 00 98 46"
    },
    {
        "request": "19 03 00 80 00 04 46 39",
        "answer": "19 03 08 70 e5 43 9a 36 b6 43 c7 90 be"
    },
    {
        "request": "19 03 00 64 00 01 c6 0d",
        "answer": "19 03 02 00 1d 58 4f"
    },
    {
        "request": "19 03 00 66 00 01 67 cd",
        "answer": "19 03 02 00 00 98 46"
    },
    {
        "request": "19 03 00 80 00 04 46 39",
        "answer": "19 03 08 70 e5 43 9a 36 b6 43 c7 90 be"
    },
    {
        "request": "19 03 00 64 00 01 c6 0d",
        "answer": "19 03 02 00 1d 58 4f"
    },
    {
        "request": "19 03 00 66 00 01 67 cd",
        "answer": "19 03 02 00 00 98 46"
    },
    {
        "request": "19 03 00 80 00 04 46 39",
        "answer": "19 03 08 70 e5 43 9a 36 b6 43 c7 90 be"
    },
    {
        "request": "19 03 00 64 00 01 c6 0d",
        "answer": "19 03 02 00 1d 58 4f"
    },
    {
        "request": "19 03 00 66 00 01 67 cd",
        "answer": "19 03 02 00 00 98 46"
    },
    {
        "request": "19 03 00 80 00 04 46 39",
        "answer": "19 03 08 70 e5 43 9a 36 b6 43 c7 90 be"
    },
    {
        "request": "19 10 00 6b 00 02 04 00 01 00 64 ff ff",
        "answer": "19 10 00 6b 00 02 33 cc"
    },
    {
        "request": "19 10 00 6b 00 02 04 00 01 00 1e ff ff",
        "answer": "19 10 00 6b 00 02 33 cc"
    },
    {
        "request": "19 10 00 6b 00 01 02 00 06 ff ff",
        "answer": "19 10 00 6b 00 01 73 cd"
    },
    {
        "request": "19 03 00 64 00 01 c6 0d",
        "answer": "19 03 02 00 1e 18 4e"
    },
    {
        "request": "19 03 00 66 00 01 67 cd",
        "answer": "19 03 02 00 00 98 46"
    },
    {
        "request": "19 03 00 80 00 04 46 39",
